
**** 09/03/18 20:44:58 ****** PSpice 16.5.0 (April 2011) ****** ID# 0 ********

 ** Profile: "SCHEMATIC1-Transient"  [ D:\DevelopWorkSpace\Github\AudioProject\KC_Amp\KCInput_VAS\Pspice\KC_Input_VAS_Spice-PSpiceFil


 ****     CIRCUIT DESCRIPTION


******************************************************************************




** Creating circuit file "Transient.cir" 
** WARNING: THIS AUTOMATICALLY GENERATED FILE MAY BE OVERWRITTEN BY SUBSEQUENT SIMULATIONS

*Libraries: 
* Profile Libraries :
* Local Libraries :
.LIB "D:/DevelopWorkSpace/Github/ORCAD_Lib/Pspice/mat02.lib" 
* From [PSPICE NETLIST] section of D:\DevelopProgramFiles\Cadence\SPB_16.5\tools\PSpice\PSpice.ini file:
.lib "nom.lib" 

*Analysis directives: 
.TRAN  0 20ms 0 
.PROBE V(alias(*)) I(alias(*)) W(alias(*)) D(alias(*)) NOISE(alias(*)) 
.INC "..\SCHEMATIC1.net" 



**** INCLUDING SCHEMATIC1.net ****
* source KC_INPUT_VAS_SPICE
R_R1         N00464 N00446  1k TC=0,0 
R_R2         N00472 N00446  1k TC=0,0 
R_R3         N00286 N00484  10 TC=0,0 
R_R4         N00286 N00488  10 TC=0,0 
R_R5         N00274 0  10k TC=0,0 
R_R6         N00282 N00321  150 TC=0,0 
Q_Q1         N00286 N00274 N00282 Q2SC1815
Q_Q2         N00274 N00282 N00321 Q2SC1815
V_V1         0 N00321 DC 25v  
V_V2         N00446 0 DC 25v  
X_U1         N00464 N00598 N00484 N00488 0 N00472 MAT02 
V_V3         N00598 0  AC 0
+SIN 0 0.01 1K 0 0 0
Q_Q3         N00446 N00472 N01376 Q2SC1815
Q_Q4         N00446 N00464 N01372 Q2SC1815
I_I1         N01376 0 DC 0.001Adc  
I_I2         N01372 0 DC 0.001Adc  

**** RESUMING Transient.cir ****
.END

**** 09/03/18 20:44:58 ****** PSpice 16.5.0 (April 2011) ****** ID# 0 ********

 ** Profile: "SCHEMATIC1-Transient"  [ D:\DevelopWorkSpace\Github\AudioProject\KC_Amp\KCInput_VAS\Pspice\KC_Input_VAS_Spice-PSpiceFil


 ****     Diode MODEL PARAMETERS


******************************************************************************




               X_U1.DMAT1      X_U1.DMAT2      
          IS  200.000000E-18   10.000000E-15 
          RS   20                            
         CJO                   40.000000E-12 
          VJ                     .6          


**** 09/03/18 20:44:58 ****** PSpice 16.5.0 (April 2011) ****** ID# 0 ********

 ** Profile: "SCHEMATIC1-Transient"  [ D:\DevelopWorkSpace\Github\AudioProject\KC_Amp\KCInput_VAS\Pspice\KC_Input_VAS_Spice-PSpiceFil


 ****     BJT MODEL PARAMETERS


******************************************************************************




               Q2SC1815        X_U1.NMAT       
               NPN             NPN             
       LEVEL    1               1            
          IS  639.500000E-18  600.000000E-15 
          BF  149.9           500            
          NF    1               1            
         VAF  172.5           150            
         IKF     .8587           .3          
         ISE  750.100000E-18                 
          NE    1.47                         
          BR    6.575            .5          
          NR    1               1            
         VAR  100               7            
         IKR     .4534                       
         ISC    4.653000E-15                 
          NC    1.185                        
          NK     .5413                       
         ISS    0               0            
          RB                   13            
          RE    0                .3          
          RC     .7972         10            
         CJE    5.000000E-12   82.000000E-12 
         VJE     .75             .7          
         MJE     .3333           .4          
         CJC    4.858000E-12   33.000000E-12 
         VJC     .75             .55         
         MJC     .3333           .5          
        XCJC    1               1            
         CJS    0               0            
         VJS     .75             .75         
          TF  314.300000E-12  300.000000E-12 
         VTF   10                            
         ITF   13.01                         
         PTF                   25            
          TR   10.000000E-09    5.000000E-09 
         XTB    1.5                          
          KF    0               0            
          AF    1               1            
          CN    2.42            2.42         
           D     .87             .87         


**** 09/03/18 20:44:58 ****** PSpice 16.5.0 (April 2011) ****** ID# 0 ********

 ** Profile: "SCHEMATIC1-Transient"  [ D:\DevelopWorkSpace\Github\AudioProject\KC_Amp\KCInput_VAS\Pspice\KC_Input_VAS_Spice-PSpiceFil


 ****     INITIAL TRANSIENT SOLUTION       TEMPERATURE =   27.000 DEG C


******************************************************************************



 NODE   VOLTAGE     NODE   VOLTAGE     NODE   VOLTAGE     NODE   VOLTAGE


(N00274)  -23.4870 (N00282)  -24.2520 (N00286)    -.5969 (N00321)  -25.0000     

(N00446)   25.0000 (N00464)   22.5110 (N00472)   22.5110 (N00484)    -.5720     

(N00488)    -.5720 (N00598)    0.0000 (N01372)   21.7850 (N01376)   21.7850     

(X_U1.4)    -.2712 




    VOLTAGE SOURCE CURRENTS
    NAME         CURRENT

    V_V1        -7.322E-03
    V_V2        -6.964E-03
    V_V3        -4.682E-06

    TOTAL POWER DISSIPATION   3.57E-01  WATTS



          JOB CONCLUDED

**** 09/03/18 20:44:58 ****** PSpice 16.5.0 (April 2011) ****** ID# 0 ********

 ** Profile: "SCHEMATIC1-Transient"  [ D:\DevelopWorkSpace\Github\AudioProject\KC_Amp\KCInput_VAS\Pspice\KC_Input_VAS_Spice-PSpiceFil


 ****     JOB STATISTICS SUMMARY


******************************************************************************



  Total job time (using Solver 1)   =         .02
