
**** 02/08/19 14:21:48 ****** PSpice 16.5.0 (April 2011) ****** ID# 0 ********

 ** Profile: "SCHEMATIC1-bias"  [ D:\DevelopWorkSpace\Github\AudioProject\KC_Amp\Simulation\InputStage\inputstagesim-pspicefiles\sche


 ****     CIRCUIT DESCRIPTION


******************************************************************************




** Creating circuit file "bias.cir" 
** WARNING: THIS AUTOMATICALLY GENERATED FILE MAY BE OVERWRITTEN BY SUBSEQUENT SIMULATIONS

*Libraries: 
* Profile Libraries :
* Local Libraries :
.LIB "d:/developworkspace/github/orcad_lib/pspice/mat02.lib" 
* From [PSPICE NETLIST] section of D:\DevelopProgramFiles\Cadence\SPB_16.5\tools\PSpice\PSpice.ini file:
.lib "nom.lib" 

*Analysis directives: 
.TRAN  0 10ms 0 
.PROBE V(alias(*)) I(alias(*)) W(alias(*)) D(alias(*)) NOISE(alias(*)) 
.INC "..\SCHEMATIC1.net" 



**** INCLUDING SCHEMATIC1.net ****
* source INPUTSTAGESIM
R_R27         N14545 0  10k TC=0,0 
R_R26         N14549 N14689  10 TC=0,0 
Q_Q18         N14545 N14559 N14579 Q2SC1815
R_R24         N17878 N14667  1000 TC=0,0 
V_V7         0 N14579 DC 25v  
Q_Q17         N14549 N14545 N14559 Q2SC1815
V_V10         N14667 0 DC 25v  
R_R23         N17860 N14667  1000 TC=0,0 
R_R25         N14549 N15237  10 TC=0,0 
R_R28         N14559 N14579  150 TC=0,0 
X_U3         N18401 N15040 N15237 N14689 0 N14763 MAT02 
R_R29         N17874 N17878  30 TC=0,0 
C_C1         N17860 N17874  2.2n  TC=0,0 
Q_Q19         N17878 N17878 N17860 Q2N6520
V_V11         N15040 0  
+SIN 0 0.001 1k 0 0 0
J_J1         N17860 N18446 N18401 J2N4391 
J_J2         N17878 N18463 N14763 J2N4391 
R_R30         N15237 N18446  60 TC=0,0 
R_R31         N14689 N18463  60 TC=0,0 
C_C4         N17878 N27744  1n  TC=0,0 
R_R19         N27222 N26952  100 TC=0,0 
I_I4         N26956 0 DC 0.001Adc  
R_R14         N27138 N27142  200 TC=0,0 
R_R18         N27374 N27222  10 TC=0,0 
V_V4         N26952 0 DC 25v  
C_C5         N27392 N27776  100p  TC=0,0 
D_D1         0 N27292 D1N4154_1 
Q_Q15         N27292 N26986 N27380 Q2SA921
Q_Q14         N27098 N27302 N27292 Q2SA1015
R_R35         N27776 N17860  45 TC=0,0 
Q_Q16         N27392 N26956 N27374 Q2SA921
R_R34         N27744 N26952  45 TC=0,0 
I_I3         N26986 0 DC 0.001Adc  
Q_Q12         N27292 N27098 N27142 Q2SC3429 
V_V5         0 N27138 DC 25v  
Q_Q10         N26952 N17878 N26986 Q2SC1815
R_R16         N27098 N27142  2k TC=0,0 
R_R17         N27380 N27222  10 TC=0,0 
R_R20         N27302 0  2k TC=0,0 
Q_Q13         N27392 N27098 N27132 Q2SC3429 
R_R15         N27138 N27132  200 TC=0,0 
Q_Q11         N26952 N17860 N26956 Q2SC1815

**** RESUMING bias.cir ****
.END

**** 02/08/19 14:21:48 ****** PSpice 16.5.0 (April 2011) ****** ID# 0 ********

 ** Profile: "SCHEMATIC1-bias"  [ D:\DevelopWorkSpace\Github\AudioProject\KC_Amp\Simulation\InputStage\inputstagesim-pspicefiles\sche


 ****     Diode MODEL PARAMETERS


******************************************************************************




               D1N4154_1       X_U3.DMAT1      X_U3.DMAT2      
          IS  153.400000E-12  200.000000E-18   10.000000E-15 
           N    1.487                                        
         ISR    4.763000E-09                                 
         IKF    3.530000E-03                                 
          BV   35                                            
         IBV    5.000000E-06                                 
          RS     .6329         20                            
          TT    5.771000E-09                                 
         CJO    2.251000E-12                   40.000000E-12 
          VJ     .5                              .6          
           M     .1575                                       


**** 02/08/19 14:21:48 ****** PSpice 16.5.0 (April 2011) ****** ID# 0 ********

 ** Profile: "SCHEMATIC1-bias"  [ D:\DevelopWorkSpace\Github\AudioProject\KC_Amp\Simulation\InputStage\inputstagesim-pspicefiles\sche


 ****     BJT MODEL PARAMETERS


******************************************************************************




               Q2SC1815        Q2SA921         Q2SA1015        Q2SC3429        
               NPN             PNP             PNP             NPN             
       LEVEL    1               1               1               1            
          IS  639.500000E-18  930.900000E-15    2.040000E-15   10.000000E-15 
          BF  149.9           460.5           183              87.718        
          NF    1               1               1               1            
         VAF  172.5           100             100             100            
         IKF     .8587           .153           1.5              .73698      
         ISE  750.100000E-18  950.500000E-15    2.140000E-15  100.490000E-15 
          NE    1.47            1.483           1.465           1.4474       
          BR    6.575           1              10.97            1            
          NR    1               1               1               1            
         VAR  100             100             100             100            
         IKR     .4534          4.548            .02637          .01         
         ISC    4.653000E-15    2.492000E-12    2.619000E-15                 
          NC    1.185           1.09            1.707                        
          NK     .5413                          1.319                        
         ISS    0               0               0               0            
          RE    0               0               0               0            
          RC     .7972          3.154            .5             0            
         CJE    5.000000E-12    5.000000E-12    5.000000E-12    2.000000E-12 
         VJE     .75             .75             .75             .75         
         MJE     .3333           .3333           .3333                       
         CJC    4.858000E-12    4.990000E-12    9.716000E-12    1.114800E-12 
         VJC     .75             .3905           .75             .35         
         MJC     .3333           .3094           .3333           .15702      
        XCJC    1               1               1               1            
         CJS    0               0               0               0            
         VJS     .75             .75             .75             .75         
          TF  314.300000E-12  945.700000E-12  452.400000E-12   26.430000E-12 
         XTF                   36.930000E+03                   10            
         VTF   10              10              10              10            
         ITF   13.01            7.075           5               1            
          TR   10.000000E-09   10.000000E-09   10.000000E-09   10.000000E-09 
         XTB    1.5             1.5             1.5             1.5          
          KF    0               0               0               0            
          AF    1               1               1               1            
          CN    2.42            2.2             2.2             2.42         
           D     .87             .52             .52             .87         


               Q2N6520         X_U3.NMAT       
               PNP             NPN             
       LEVEL    1               1            
          IS   34.900000E-15  600.000000E-15 
          BF   90.34          500            
          NF    1               1            
         VAF  100             150            
         IKF     .4921           .3          
         ISE   34.900000E-15                 
          NE    1.291                        
          BR    5.434            .5          
          NR    1               1            
         VAR                    7            
         ISS    0               0            
          RB   10              13            
          RE    0                .3          
          RC   10              10            
         CJE   88.560000E-12   82.000000E-12 
         VJE     .75             .7          
         MJE     .2744           .4          
         CJC   31.630000E-12   33.000000E-12 
         VJC     .75             .55         
         MJC     .5163           .5          
        XCJC    1               1            
         CJS    0               0            
         VJS     .75             .75         
          TF    1.648000E-09  300.000000E-12 
         XTF  180                            
         VTF   20                            
         ITF    2                            
         PTF                   25            
          TR  546.900000E-09    5.000000E-09 
         XTB    1.5                          
          KF    0               0            
          AF    1               1            
          CN    2.2             2.42         
           D     .52             .87         


**** 02/08/19 14:21:48 ****** PSpice 16.5.0 (April 2011) ****** ID# 0 ********

 ** Profile: "SCHEMATIC1-bias"  [ D:\DevelopWorkSpace\Github\AudioProject\KC_Amp\Simulation\InputStage\inputstagesim-pspicefiles\sche


 ****     Junction FET MODEL PARAMETERS


******************************************************************************




               J2N4391         
               NJF             
         VTO   -5.803        
        BETA    2.658000E-03 
      LAMBDA     .013        
          IS  205.200000E-15 
         ISR    1.988000E-12 
       ALPHA   20.980000E-06 
          VK  123.7          
          RD    1            
          RS    1            
         CGD    5.350000E-12 
         CGS    4.760000E-12 
           M     .4069       
       VTOTC   -2.500000E-03 
     BETATCE    -.5          
          KF   34.430000E-18 


**** 02/08/19 14:21:48 ****** PSpice 16.5.0 (April 2011) ****** ID# 0 ********

 ** Profile: "SCHEMATIC1-bias"  [ D:\DevelopWorkSpace\Github\AudioProject\KC_Amp\Simulation\InputStage\inputstagesim-pspicefiles\sche


 ****     INITIAL TRANSIENT SOLUTION       TEMPERATURE =   27.000 DEG C


******************************************************************************



 NODE   VOLTAGE     NODE   VOLTAGE     NODE   VOLTAGE     NODE   VOLTAGE


(N14545)  -23.4870 (N14549)    -.6000 (N14559)  -24.2520 (N14579)  -25.0000     

(N14667)   25.0000 (N14689)    -.5752 (N14763)    4.3563 (N15040)    0.0000     

(N15237)    -.5752 (N17860)   22.5120 (N17874)   22.5120 (N17878)   22.5120     

(N18401)    4.3563 (N18446)    -.5752 (N18463)    -.5752 (N26952)   25.0000     

(N26956)   21.7870 (N26986)   21.7870 (N27098)  -21.8060 (N27132)  -22.5180     

(N27138)  -25.0000 (N27142)  -22.5200 (N27222)   22.5130 (N27292)     .6845     

(N27302)     .0058 (N27374)   22.3900 (N27380)   22.3870 (N27392)   12.5890     

(N27744)   25.0000 (N27776)   22.5120 (X_U3.4)    -.3164 




    VOLTAGE SOURCE CURRENTS
    NAME         CURRENT

    V_V7        -7.322E-03
    V_V10       -4.976E-03
    V_V11       -5.287E-06
    V_V4        -2.680E-02
    V_V5        -2.481E-02

    TOTAL POWER DISSIPATION   1.60E+00  WATTS



          JOB CONCLUDED

**** 02/08/19 14:21:48 ****** PSpice 16.5.0 (April 2011) ****** ID# 0 ********

 ** Profile: "SCHEMATIC1-bias"  [ D:\DevelopWorkSpace\Github\AudioProject\KC_Amp\Simulation\InputStage\inputstagesim-pspicefiles\sche


 ****     JOB STATISTICS SUMMARY


******************************************************************************



  Total job time (using Solver 1)   =         .05
