
**** 02/07/19 08:24:12 ****** PSpice 16.5.0 (April 2011) ****** ID# 0 ********

 ** Profile: "SCHEMATIC1-bias"  [ D:\DEVELOPWORKSPACE\GITHUB\AUDIOPROJECT\KC_AMP\SIMULATION\VUMeterDriver\VUMeterDriver-PSpiceFiles\S


 ****     CIRCUIT DESCRIPTION


******************************************************************************




** Creating circuit file "bias.cir" 
** WARNING: THIS AUTOMATICALLY GENERATED FILE MAY BE OVERWRITTEN BY SUBSEQUENT SIMULATIONS

*Libraries: 
* Profile Libraries :
* Local Libraries :
.LIB "d:/developworkspace/github/orcad_lib/pspice/ne5532.lib" 
* From [PSPICE NETLIST] section of D:\DevelopProgramFiles\Cadence\SPB_16.5\tools\PSpice\PSpice.ini file:
.lib "nom.lib" 

*Analysis directives: 
.AC DEC 200 10 1G
.PROBE V(alias(*)) I(alias(*)) W(alias(*)) D(alias(*)) NOISE(alias(*)) 
.INC "..\SCHEMATIC1.net" 



**** INCLUDING SCHEMATIC1.net ****
* source VUMETERDRIVER
X_U1         N00600 N00477 N00330 N00366 N00397 NE5532 
C_C1         0 N00600  0.01n  TC=0,0 
C_C2         0 N00497  47u  TC=0,0 
C_C3         N00397 N00426  4.7u  TC=0,0 
R_R1         N00723 N00600  4750 TC=0,0 
R_R2         0 N00600  47k TC=0,0 
R_R3         N00497 N00477  10k TC=0,0 
R_R4         N00477 N00397  100k TC=0,0 
V_V1         N00330 0 12Vdc
V_V2         0 N00366 12Vdc
R_R5         0 N00426  500k TC=0,0 
V_V3         N00723 0 DC 0Vdc AC 0.1Vac 

**** RESUMING bias.cir ****
.END

**** 02/07/19 08:24:12 ****** PSpice 16.5.0 (April 2011) ****** ID# 0 ********

 ** Profile: "SCHEMATIC1-bias"  [ D:\DEVELOPWORKSPACE\GITHUB\AUDIOPROJECT\KC_AMP\SIMULATION\VUMeterDriver\VUMeterDriver-PSpiceFiles\S


 ****     Diode MODEL PARAMETERS


******************************************************************************




               X_U1.DX         
          IS  800.000000E-18 


**** 02/07/19 08:24:12 ****** PSpice 16.5.0 (April 2011) ****** ID# 0 ********

 ** Profile: "SCHEMATIC1-bias"  [ D:\DEVELOPWORKSPACE\GITHUB\AUDIOPROJECT\KC_AMP\SIMULATION\VUMeterDriver\VUMeterDriver-PSpiceFiles\S


 ****     BJT MODEL PARAMETERS


******************************************************************************




               X_U1.QX         
               NPN             
       LEVEL    1            
          IS  800.000000E-18 
          BF  132            
          NF    1            
          BR    1            
          NR    1            
         ISS    0            
          RE    0            
          RC    0            
         CJE    0            
         VJE     .75         
         CJC    0            
         VJC     .75         
         MJC     .33         
        XCJC    1            
         CJS    0            
         VJS     .75         
          KF    0            
          AF    1            
          CN    2.42         
           D     .87         


**** 02/07/19 08:24:12 ****** PSpice 16.5.0 (April 2011) ****** ID# 0 ********

 ** Profile: "SCHEMATIC1-bias"  [ D:\DEVELOPWORKSPACE\GITHUB\AUDIOPROJECT\KC_AMP\SIMULATION\VUMeterDriver\VUMeterDriver-PSpiceFiles\S


 ****     SMALL SIGNAL BIAS SOLUTION       TEMPERATURE =   27.000 DEG C


******************************************************************************



 NODE   VOLTAGE     NODE   VOLTAGE     NODE   VOLTAGE     NODE   VOLTAGE


(N00330)   12.0000 (N00366)  -12.0000 (N00397)     .0477 (N00426)    0.0000     

(N00477)    -.0021 (N00497)    -.0021 (N00600)    -.0022 (N00723)    0.0000     

(X_U1.6)-66.00E-06 (X_U1.7)     .0477 (X_U1.8)     .0477 (X_U1.9)    0.0000     

(X_U1.10)    -.6740                   (X_U1.11)   11.9520                       

(X_U1.12)   11.9520                   (X_U1.13)    -.6522                       

(X_U1.14)    -.6522                   (X_U1.53)    9.3000                       

(X_U1.54)   -9.3000                   (X_U1.90) 498.3E-06                       

(X_U1.91)   38.0000                   (X_U1.92)  -38.0000                       

(X_U1.99)    0.0000                   




    VOLTAGE SOURCE CURRENTS
    NAME         CURRENT

    V_V1        -3.226E-03
    V_V2        -3.227E-03
    V_V3        -4.525E-07
    X_U1.VB     -6.600E-10
    X_U1.VC      9.253E-12
    X_U1.VE      9.348E-12
    X_U1.VLIM    4.983E-07
    X_U1.VLP    -3.800E-11
    X_U1.VLN    -3.800E-11

    TOTAL POWER DISSIPATION   7.74E-02  WATTS



          JOB CONCLUDED

**** 02/07/19 08:24:12 ****** PSpice 16.5.0 (April 2011) ****** ID# 0 ********

 ** Profile: "SCHEMATIC1-bias"  [ D:\DEVELOPWORKSPACE\GITHUB\AUDIOPROJECT\KC_AMP\SIMULATION\VUMeterDriver\VUMeterDriver-PSpiceFiles\S


 ****     JOB STATISTICS SUMMARY


******************************************************************************



  Total job time (using Solver 1)   =         .05
