
**** 02/13/19 07:28:24 ****** PSpice 16.5.0 (April 2011) ****** ID# 0 ********

 ** Profile: "SCHEMATIC1-bias"  [ D:\DevelopWorkSpace\Github\AudioProject\KC_Amp\Simulation\VUMeterDriver\vumeterdriver-pspicefiles\s


 ****     CIRCUIT DESCRIPTION


******************************************************************************




** Creating circuit file "bias.cir" 
** WARNING: THIS AUTOMATICALLY GENERATED FILE MAY BE OVERWRITTEN BY SUBSEQUENT SIMULATIONS

*Libraries: 
* Profile Libraries :
* Local Libraries :
.LIB "d:/developworkspace/github/orcad_lib/pspice/ne5532.lib" 
* From [PSPICE NETLIST] section of D:\DevelopProgramFiles\Cadence\SPB_16.5\tools\PSpice\PSpice.ini file:
.lib "nom.lib" 

*Analysis directives: 
.AC DEC 200 10 1G
.STEP PARAM R6 LIST 600,866,1400 
.PROBE V(alias(*)) I(alias(*)) W(alias(*)) D(alias(*)) NOISE(alias(*)) 
.INC "..\SCHEMATIC1.net" 



**** INCLUDING SCHEMATIC1.net ****
* source VUMETERDRIVER
X_U1         N00600 N00477 N00332 N00368 OUT NE5532 
C_C1         0 N00600  0.01n  TC=0,0 
C_C2         0 N00497  47u  TC=0,0 
C_C3         OUT N00426  4.7u  TC=0,0 
R_R1         IN N00600  4750 TC=0,0 
R_R2         0 N00600  47k TC=0,0 
R_R3         N00497 N00477  10k TC=0,0 
R_R4         N00477 OUT  100k TC=0,0 
R_R5         0 N00426  500k TC=0,0 
V_V3         IN 0 DC 0Vdc AC 0.1Vac 
V_V4         0 N00368 DC 12 AC 0 
V_V5         N00332 0 DC 12 AC 0 
R_R6         0 N00600  {R6} TC=0,0 
.PARAM  r6=1000

**** RESUMING bias.cir ****
.END

**** 02/13/19 07:28:24 ****** PSpice 16.5.0 (April 2011) ****** ID# 0 ********

 ** Profile: "SCHEMATIC1-bias"  [ D:\DevelopWorkSpace\Github\AudioProject\KC_Amp\Simulation\VUMeterDriver\vumeterdriver-pspicefiles\s


 ****     Diode MODEL PARAMETERS


******************************************************************************




               X_U1.DX         
          IS  800.000000E-18 


**** 02/13/19 07:28:24 ****** PSpice 16.5.0 (April 2011) ****** ID# 0 ********

 ** Profile: "SCHEMATIC1-bias"  [ D:\DevelopWorkSpace\Github\AudioProject\KC_Amp\Simulation\VUMeterDriver\vumeterdriver-pspicefiles\s


 ****     BJT MODEL PARAMETERS


******************************************************************************




               X_U1.QX         
               NPN             
       LEVEL    1            
          IS  800.000000E-18 
          BF  132            
          NF    1            
          BR    1            
          NR    1            
         ISS    0            
          RE    0            
          RC    0            
         CJE    0            
         VJE     .75         
         CJC    0            
         VJC     .75         
         MJC     .33         
        XCJC    1            
         CJS    0            
         VJS     .75         
          KF    0            
          AF    1            
          CN    2.42         
           D     .87         


**** 02/13/19 07:28:24 ****** PSpice 16.5.0 (April 2011) ****** ID# 0 ********

 ** Profile: "SCHEMATIC1-bias"  [ D:\DevelopWorkSpace\Github\AudioProject\KC_Amp\Simulation\VUMeterDriver\vumeterdriver-pspicefiles\s


 ****     SMALL SIGNAL BIAS SOLUTION       TEMPERATURE =   27.000 DEG C

 ****     CURRENT STEP                     PARAM R6 =  600   


******************************************************************************



 NODE   VOLTAGE     NODE   VOLTAGE     NODE   VOLTAGE     NODE   VOLTAGE


(   IN)    0.0000  (  OUT)     .0496  (N00332)   12.0000 (N00368)  -12.0000     

(N00426)    0.0000 (N00477)-256.2E-06 (N00497)-256.2E-06 (N00600)-262.5E-06     

(X_U1.6)-68.61E-06 (X_U1.7)     .0496 (X_U1.8)     .0496 (X_U1.9)    0.0000     

(X_U1.10)    -.6721                   (X_U1.11)   11.9520                       

(X_U1.12)   11.9520                   (X_U1.13)    -.6503                       

(X_U1.14)    -.6503                   (X_U1.53)    9.3000                       

(X_U1.54)   -9.3000                   (X_U1.90) 498.3E-06                       

(X_U1.91)   38.0000                   (X_U1.92)  -38.0000                       

(X_U1.99)    0.0000                   




    VOLTAGE SOURCE CURRENTS
    NAME         CURRENT

    V_V3        -5.526E-08
    V_V4        -3.227E-03
    V_V5        -3.226E-03
    X_U1.VB     -6.861E-10
    X_U1.VC      9.251E-12
    X_U1.VE      9.350E-12
    X_U1.VLIM    4.983E-07
    X_U1.VLP    -3.800E-11
    X_U1.VLN    -3.800E-11

    TOTAL POWER DISSIPATION   7.74E-02  WATTS


**** 02/13/19 07:28:24 ****** PSpice 16.5.0 (April 2011) ****** ID# 0 ********

 ** Profile: "SCHEMATIC1-bias"  [ D:\DevelopWorkSpace\Github\AudioProject\KC_Amp\Simulation\VUMeterDriver\vumeterdriver-pspicefiles\s


 ****     SMALL SIGNAL BIAS SOLUTION       TEMPERATURE =   27.000 DEG C

 ****     CURRENT STEP                     PARAM R6 =  866   


******************************************************************************



 NODE   VOLTAGE     NODE   VOLTAGE     NODE   VOLTAGE     NODE   VOLTAGE


(   IN)    0.0000  (  OUT)     .0495  (N00332)   12.0000 (N00368)  -12.0000     

(N00426)    0.0000 (N00477)-353.1E-06 (N00497)-353.1E-06 (N00600)-359.4E-06     

(X_U1.6)-68.48E-06 (X_U1.7)     .0495 (X_U1.8)     .0495 (X_U1.9)    0.0000     

(X_U1.10)    -.6722                   (X_U1.11)   11.9520                       

(X_U1.12)   11.9520                   (X_U1.13)    -.6504                       

(X_U1.14)    -.6504                   (X_U1.53)    9.3000                       

(X_U1.54)   -9.3000                   (X_U1.90) 498.3E-06                       

(X_U1.91)   38.0000                   (X_U1.92)  -38.0000                       

(X_U1.99)    0.0000                   




    VOLTAGE SOURCE CURRENTS
    NAME         CURRENT

    V_V3        -7.566E-08
    V_V4        -3.227E-03
    V_V5        -3.226E-03
    X_U1.VB     -6.848E-10
    X_U1.VC      9.251E-12
    X_U1.VE      9.350E-12
    X_U1.VLIM    4.983E-07
    X_U1.VLP    -3.800E-11
    X_U1.VLN    -3.800E-11

    TOTAL POWER DISSIPATION   7.74E-02  WATTS


**** 02/13/19 07:28:24 ****** PSpice 16.5.0 (April 2011) ****** ID# 0 ********

 ** Profile: "SCHEMATIC1-bias"  [ D:\DevelopWorkSpace\Github\AudioProject\KC_Amp\Simulation\VUMeterDriver\vumeterdriver-pspicefiles\s


 ****     SMALL SIGNAL BIAS SOLUTION       TEMPERATURE =   27.000 DEG C

 ****     CURRENT STEP                     PARAM R6 =    1.4000E+03


******************************************************************************



 NODE   VOLTAGE     NODE   VOLTAGE     NODE   VOLTAGE     NODE   VOLTAGE


(   IN)    0.0000  (  OUT)     .0493  (N00332)   12.0000 (N00368)  -12.0000     

(N00426)    0.0000 (N00477)-520.4E-06 (N00497)-520.4E-06 (N00600)-526.7E-06     

(X_U1.6)-68.25E-06 (X_U1.7)     .0493 (X_U1.8)     .0493 (X_U1.9)    0.0000     

(X_U1.10)    -.6724                   (X_U1.11)   11.9520                       

(X_U1.12)   11.9520                   (X_U1.13)    -.6506                       

(X_U1.14)    -.6506                   (X_U1.53)    9.3000                       

(X_U1.54)   -9.3000                   (X_U1.90) 498.3E-06                       

(X_U1.91)   38.0000                   (X_U1.92)  -38.0000                       

(X_U1.99)    0.0000                   




    VOLTAGE SOURCE CURRENTS
    NAME         CURRENT

    V_V3        -1.109E-07
    V_V4        -3.227E-03
    V_V5        -3.226E-03
    X_U1.VB     -6.825E-10
    X_U1.VC      9.251E-12
    X_U1.VE      9.350E-12
    X_U1.VLIM    4.983E-07
    X_U1.VLP    -3.800E-11
    X_U1.VLN    -3.800E-11

    TOTAL POWER DISSIPATION   7.74E-02  WATTS



          JOB CONCLUDED

**** 02/13/19 07:28:24 ****** PSpice 16.5.0 (April 2011) ****** ID# 0 ********

 ** Profile: "SCHEMATIC1-bias"  [ D:\DevelopWorkSpace\Github\AudioProject\KC_Amp\Simulation\VUMeterDriver\vumeterdriver-pspicefiles\s


 ****     JOB STATISTICS SUMMARY

 ****     CURRENT STEP                     PARAM R6 =    1.4000E+03


******************************************************************************



  Total job time (using Solver 1)   =         .13
