
**** 09/23/18 00:23:31 ****** PSpice 16.5.0 (April 2011) ****** ID# 0 ********

 ** Profile: "SCHEMATIC1-AC"  [ D:\DevelopWorkSpace\Github\AudioProject\PspiceTest\Simple3StageAmp\3stageamp-pspicefiles\schematic1\a


 ****     CIRCUIT DESCRIPTION


******************************************************************************




** Creating circuit file "AC.cir" 
** WARNING: THIS AUTOMATICALLY GENERATED FILE MAY BE OVERWRITTEN BY SUBSEQUENT SIMULATIONS

*Libraries: 
* Profile Libraries :
* Local Libraries :
* From [PSPICE NETLIST] section of D:\DevelopProgramFiles\Cadence\SPB_16.5\tools\PSpice\PSpice.ini file:
.lib "nom.lib" 

*Analysis directives: 
.AC DEC 20 1 1000Meg
.PROBE V(alias(*)) I(alias(*)) W(alias(*)) D(alias(*)) NOISE(alias(*)) 
.INC "..\SCHEMATIC1.net" 



**** INCLUDING SCHEMATIC1.net ****
* source 3STAGEAMP
Q_Q1         N04101 N02394 N04957 Q2SC1815
Q_Q2         N04063 0 N04961 Q2SC1815
V_V1         N00637 0 20Vdc
V_V2         0 N00171 20Vdc
Q_Q3         N05713 N04101 N05352 Q2SA1015
R_R3         0 N05182  100 TC=0,0 
Q_Q5         N04965 N03077 N03145 Q2SC1815
Q_Q6         N05713 N03077 N03326 Q2SC1815
D_D1         N03077 N03073 D1N4148_1 
D_D2         N03073 N00171 D1N4148_1 
R_R4         N03077 0  22k TC=0,0 
R_R5         N00171 N03145  100 TC=0,0 
R_R7         N00171 N03326  100 TC=0,0 
Q_Q8         N04101 N04063 N04059 Q2SA1015
Q_Q9         N04063 N04063 N04067 Q2SA1015
R_R9         N00637 N04059  68 TC=0,0 
R_R10         N00637 N04067  68 TC=0,0 
R_R11         N04965 N04957  10 TC=0,0 
R_R12         N04965 N04961  10 TC=0,0 
R_R13         N05352 N00637  100 TC=0,0 
Q_Q10         N00637 N05713 N05182 MPSA42
Q_Q11         N05182 N03077 N05933 Q2SC1815
R_R14         N00171 N05933  100 TC=0,0 
V_V3         N02394 0 DC 0Vdc AC 0.1mVac 
R_R15         N07571 N07845  100 TC=0,0 
Q_Q12         N08227 N08057 N08221 Q2SA1015
V_V6         N07683 0 DC 0Vdc AC 0.1mVac 
Q_Q16         N08029 N08029 N08033 Q2SA1015
R_R8         N07827 0  22k TC=0,0 
Q_Q13         N08167 N07827 N07845 Q2SC1815
Q_Q4         N08057 N07683 N08135 Q2SC1815
R_R19         N08167 N08135  100 TC=0,0 
Q_Q17         N07627 N08227 N08189 MPSA42
R_R16         N07571 N07917  100 TC=0,0 
D_D3         N07827 N07821 D1N4148_1 
Q_Q14         N08227 N07827 N07917 Q2SC1815
Q_Q15         N08057 N08029 N08023 Q2SA1015
R_R20         N08167 N08161  100 TC=0,0 
R_R22         N07571 N08325  100 TC=0,0 
R_R17         N07627 N08023  68 TC=0,0 
Q_Q7         N08029 N08534 N08161 Q2SC1815
R_R6         0 N08189  100 TC=0,0 
R_R18         N07627 N08033  68 TC=0,0 
R_R21         N08221 N07627  100 TC=0,0 
Q_Q18         N08189 N07827 N08325 Q2SC1815
V_V4         N07627 0 20Vdc
V_V5         0 N07571 20Vdc
D_D4         N07821 N07571 D1N4148_1 
R_R23         N08534 N08189  22K TC=0,0 
R_R24         0 N08534  1k TC=0,0 
Q_Q19         N10107 N09733 N10181 Q2SC1815
R_R27         N09621 N09895  150 TC=0,0 
Q_Q24         N10107 N10079 N10073 Q2SA1015
V_V9         N09733 0 DC 0Vdc AC 0.1mVac 
Q_Q25         N10079 N10079 N10083 Q2SA1015
R_R32         N10213 N10207  100 TC=0,0 
V_V7         N09677 0 20Vdc
R_R35         N10453 N10235  22K TC=0,0 
Q_Q27         N10235 N09877 N10371 Q2SC1815
R_R34         N09621 N10371  100 TC=0,0 
D_D5         N09877 N09871 D1N4148_1 
R_R25         0 N10235  20 TC=0,0 
Q_Q20         N10079 N10453 N10207 Q2SC1815
Q_Q22         N10213 N09877 N09895 Q2SC1815
Q_Q23         N10273 N09877 N09947 Q2SC1815
R_R28         N09621 N09947  100 TC=0,0 
R_R26         N09877 0  22k TC=0,0 
R_R33         N10247 N09677  100 TC=0,0 
D_D6         N09871 N09621 D1N4148_1 
R_R31         N10213 N10181  100 TC=0,0 
R_R29         N09677 N10073  68 TC=0,0 
V_V8         0 N09621 20Vdc
R_R30         N09677 N10083  68 TC=0,0 
R_R36         0 N10453  1K TC=0,0 
Q_Q26         N09677 N10273 N10235 MPSA42
Q_Q21         N10273 N10107 N10247 Q2SA1015
C_C1         N10107 N10273  33p  TC=0,0 
C_C2         N04101 N05713  233p  TC=0,0 
.PARAM  var=33p

**** RESUMING AC.cir ****
.END

**** 09/23/18 00:23:31 ****** PSpice 16.5.0 (April 2011) ****** ID# 0 ********

 ** Profile: "SCHEMATIC1-AC"  [ D:\DevelopWorkSpace\Github\AudioProject\PspiceTest\Simple3StageAmp\3stageamp-pspicefiles\schematic1\a


 ****     Diode MODEL PARAMETERS


******************************************************************************




               D1N4148_1       
          IS    2.682000E-09 
           N    1.836        
         ISR    1.565000E-09 
         IKF     .04417      
          BV  100            
         IBV  100.000000E-06 
          RS     .5664       
          TT   11.540000E-09 
         CJO    4.000000E-12 
          VJ     .5          
           M     .3333       


**** 09/23/18 00:23:31 ****** PSpice 16.5.0 (April 2011) ****** ID# 0 ********

 ** Profile: "SCHEMATIC1-AC"  [ D:\DevelopWorkSpace\Github\AudioProject\PspiceTest\Simple3StageAmp\3stageamp-pspicefiles\schematic1\a


 ****     BJT MODEL PARAMETERS


******************************************************************************




               Q2SC1815        Q2SA1015        MPSA42          
               NPN             PNP             NPN             
       LEVEL    1               1               1            
          IS  639.500000E-18    2.040000E-15   34.900000E-15 
          BF  149.9           183               2.650000E+03 
          NF    1               1               1            
         VAF  172.5           100             100            
         IKF     .8587          1.5              .02379      
         ISE  750.100000E-18    2.140000E-15   16.320000E-12 
          NE    1.47            1.465           1.708        
          BR    6.575          10.97            9.769        
          NR    1               1               1            
         VAR  100             100                            
         IKR     .4534           .02637                      
         ISC    4.653000E-15    2.619000E-15                 
          NC    1.185           1.707                        
          NK     .5413          1.319                        
         ISS    0               0               0            
          RB                                   10            
          RE    0               0               0            
          RC     .7972           .5             7            
         CJE    5.000000E-12    5.000000E-12   49.620000E-12 
         VJE     .75             .75             .75         
         MJE     .3333           .3333           .4136       
         CJC    4.858000E-12    9.716000E-12   14.230000E-12 
         VJC     .75             .75             .75         
         MJC     .3333           .3333           .5489       
        XCJC    1               1               1            
         CJS    0               0               0            
         VJS     .75             .75             .75         
          TF  314.300000E-12  452.400000E-12    1.690000E-09 
         XTF                                  150            
         VTF   10              10              20            
         ITF   13.01            5               5            
          TR   10.000000E-09   10.000000E-09  934.300000E-12 
         XTB    1.5             1.5             1.5          
          KF    0               0               0            
          AF    1               1               1            
          CN    2.42            2.2             2.42         
           D     .87             .52             .87         


**** 09/23/18 00:23:31 ****** PSpice 16.5.0 (April 2011) ****** ID# 0 ********

 ** Profile: "SCHEMATIC1-AC"  [ D:\DevelopWorkSpace\Github\AudioProject\PspiceTest\Simple3StageAmp\3stageamp-pspicefiles\schematic1\a


 ****     SMALL SIGNAL BIAS SOLUTION       TEMPERATURE =   27.000 DEG C


******************************************************************************



 NODE   VOLTAGE     NODE   VOLTAGE     NODE   VOLTAGE     NODE   VOLTAGE


(N00171)  -20.0000 (N00637)   20.0000 (N02394)    0.0000 (N03073)  -19.4070     

(N03077)  -18.8150 (N03145)  -19.5760 (N03326)  -19.5760 (N04059)   19.8580     

(N04063)   19.1430 (N04067)   19.8580 (N04101)   18.8390 (N04957)    -.7429     

(N04961)    -.7429 (N04965)    -.7639 (N05182)     .3409 (N05352)   19.5690     

(N05713)    1.0184 (N05933)  -19.5760 (N07571)  -20.0000 (N07627)   20.0000     

(N07683)    0.0000 (N07821)  -19.4070 (N07827)  -18.8150 (N07845)  -19.5760     

(N07917)  -19.5760 (N08023)   19.8580 (N08029)   19.1430 (N08033)   19.8580     

(N08057)   18.8390 (N08135)    -.7429 (N08161)    -.7427 (N08167)    -.9534     

(N08189)     .2882 (N08221)   19.5690 (N08227)     .9634 (N08325)  -19.5760     

(N08534) 169.6E-06 (N09621)  -20.0000 (N09677)   20.0000 (N09733)    0.0000     

(N09871)  -19.4070 (N09877)  -18.8140 (N09895)  -19.5650 (N09947)  -19.5750     

(N10073)   19.9030 (N10079)   19.1980 (N10083)   19.9030 (N10107)   18.8340     

(N10181)    -.7331 (N10207)    -.7337 (N10213)    -.8774 (N10235)     .1768     

(N10247)   19.5640 (N10273)     .8722 (N10371)  -19.5750 (N10453)-751.7E-06 




    VOLTAGE SOURCE CURRENTS
    NAME         CURRENT

    V_V1        -1.603E-02
    V_V2        -1.350E-02
    V_V3        -1.293E-05
    V_V6        -1.293E-05
    V_V4        -1.551E-02
    V_V5        -1.350E-02
    V_V9        -8.876E-06
    V_V7        -2.016E-02
    V_V8        -1.218E-02

    TOTAL POWER DISSIPATION   1.82E+00  WATTS



          JOB CONCLUDED

**** 09/23/18 00:23:31 ****** PSpice 16.5.0 (April 2011) ****** ID# 0 ********

 ** Profile: "SCHEMATIC1-AC"  [ D:\DevelopWorkSpace\Github\AudioProject\PspiceTest\Simple3StageAmp\3stageamp-pspicefiles\schematic1\a


 ****     JOB STATISTICS SUMMARY


******************************************************************************



  Total job time (using Solver 1)   =         .05
